T20B8 000:006.639   SEGGER J-Link V8.42 Log File
T20B8 000:006.796   DLL Compiled: Jun 11 2025 12:15:45
T20B8 000:006.817   Logging started @ 2025-07-16 02:53
T20B8 000:006.838   Process: C:\Keil_v5\UV4\UV4.exe
T20B8 000:006.872 - 6.859ms 
T20B8 000:006.897 JLINK_SetWarnOutHandler(...)
T20B8 000:006.929 - 0.034ms 
T20B8 000:006.955 JLINK_OpenEx(...)
T20B8 000:012.614   Firmware: J-Link V9 compiled May  7 2021 16:26:12
T20B8 000:014.615   Firmware: J-Link V9 compiled May  7 2021 16:26:12
T20B8 000:014.882   Decompressing FW timestamp took 153 us
T20B8 000:023.350   Hardware: V9.70
T20B8 000:023.425   S/N: 69706099
T20B8 000:023.454   OEM: SEGGER
T20B8 000:023.483   Feature(s): RDI, FlashBP, FlashDL, JFlash, GDB
T20B8 000:025.604   Bootloader: (FW returned invalid version)
T20B8 000:027.732   TELNET listener socket opened on port 19021
T20B8 000:028.247   WEBSRV WEBSRV_Init(): Starting webserver thread(s)
T20B8 000:028.641   WEBSRV Webserver running on local port 19080
T20B8 000:028.954   Looking for J-Link GUI Server exe at: C:\Keil_v5\ARM\Segger\JLinkGUIServer.exe
T20B8 000:029.053   Forking J-Link GUI Server: C:\Keil_v5\ARM\Segger\JLinkGUIServer.exe
T20B8 000:061.840   J-Link GUI Server info: "J-Link GUI server V8.42 "
T20B8 000:065.779 - 58.795ms returns "O.K."
T20B8 000:065.865 JLINK_GetEmuCaps()
T20B8 000:065.889 - 0.025ms returns 0xB9FF7BBF
T20B8 000:065.925 JLINK_TIF_GetAvailable(...)
T20B8 000:066.609 - 0.683ms 
T20B8 000:066.642 JLINK_SetErrorOutHandler(...)
T20B8 000:066.662 - 0.021ms 
T20B8 000:066.735 JLINK_ExecCommand("ProjectFile = "C:\Users\gtc\Desktop\xyz_back\hc32f460_mdk_3.3.0\MDK_ARM\MDK\JLinkSettings.ini"", ...). 
T20B8 000:081.652 - 14.920ms returns 0x00
T20B8 000:082.906 JLINK_ExecCommand("Device = HC32F460JEUA", ...). 
T20B8 000:087.379   Device "HC32F460XE" selected.
T20B8 000:087.855 - 4.903ms returns 0x00
T20B8 000:087.887 JLINK_ExecCommand("DisableConnectionTimeout", ...). 
T20B8 000:087.919   ERROR: Unknown command
T20B8 000:087.949 - 0.040ms returns 0x01
T20B8 000:087.970 JLINK_GetHardwareVersion()
T20B8 000:087.992 - 0.019ms returns 97000
T20B8 000:088.013 JLINK_GetDLLVersion()
T20B8 000:088.032 - 0.019ms returns 84200
T20B8 000:088.052 JLINK_GetOEMString(...)
T20B8 000:088.157 JLINK_GetFirmwareString(...)
T20B8 000:088.178 - 0.021ms 
T20B8 000:095.063 JLINK_GetDLLVersion()
T20B8 000:095.116 - 0.052ms returns 84200
T20B8 000:095.137 JLINK_GetCompileDateTime()
T20B8 000:095.157 - 0.019ms 
T20B8 000:097.271 JLINK_GetFirmwareString(...)
T20B8 000:097.323 - 0.051ms 
T20B8 000:099.365 JLINK_GetHardwareVersion()
T20B8 000:099.405 - 0.040ms returns 97000
T20B8 000:101.917 JLINK_GetSN()
T20B8 000:101.962 - 0.044ms returns 69706099
T20B8 000:105.238 JLINK_GetOEMString(...)
T20B8 000:108.888 JLINK_TIF_Select(JLINKARM_TIF_SWD)
T20B8 000:111.710 - 2.813ms returns 0x00
T20B8 000:111.791 JLINK_HasError()
T20B8 000:111.859 JLINK_SetSpeed(5000)
T20B8 000:112.447 - 0.588ms 
T20B8 000:112.516 JLINK_GetId()
T20B8 000:117.371   Found SW-DP with ID 0x2BA01477
T20B8 000:125.090   DPIDR: 0x2BA01477
T20B8 000:126.980   CoreSight SoC-400 or earlier
T20B8 000:128.710   Scanning AP map to find all available APs
T20B8 000:133.510   AP[1]: Stopped AP scan as end of AP map has been reached
T20B8 000:135.910   AP[0]: AHB-AP (IDR: 0x24770011, ADDR: 0x00000000)
T20B8 000:137.783   Iterating through AP map to find AHB-AP to use
T20B8 000:142.282   AP[0]: Core found
T20B8 000:145.067   AP[0]: AHB-AP ROM base: 0xE00FF000
T20B8 000:148.210   CPUID register: 0x410FC241. Implementer code: 0x41 (ARM)
T20B8 000:150.939   Found Cortex-M4 r0p1, Little endian.
T20B8 000:152.235   -- Max. mem block: 0x00010E60
T20B8 000:153.495   CPU_ReadMem(4 bytes @ 0xE000EDF0)
T20B8 000:154.353   CPU_WriteMem(4 bytes @ 0xE000EDF0)
T20B8 000:155.097   CPU_ReadMem(4 bytes @ 0xE0002000)
T20B8 000:158.329   FPUnit: 6 code (BP) slots and 2 literal slots
T20B8 000:158.376   CPU_ReadMem(4 bytes @ 0xE000EDFC)
T20B8 000:159.159   CPU_WriteMem(4 bytes @ 0xE000EDFC)
T20B8 000:160.023   CPU_ReadMem(4 bytes @ 0xE0001000)
T20B8 000:161.030   CPU_WriteMem(4 bytes @ 0xE0001000)
T20B8 000:161.849   CPU_ReadMem(4 bytes @ 0xE000ED88)
T20B8 000:162.700   CPU_WriteMem(4 bytes @ 0xE000ED88)
T20B8 000:163.352   CPU_ReadMem(4 bytes @ 0xE000ED88)
T20B8 000:164.221   CPU_WriteMem(4 bytes @ 0xE000ED88)
T20B8 000:168.509   CoreSight components:
T20B8 000:171.495   ROMTbl[0] @ E00FF000
T20B8 000:171.545   CPU_ReadMem(64 bytes @ 0xE00FF000)
T20B8 000:172.887   CPU_ReadMem(32 bytes @ 0xE000EFE0)
T20B8 000:176.936   [0][0]: E000E000 CID B105E00D PID 000BB00C SCS-M7
T20B8 000:176.985   CPU_ReadMem(32 bytes @ 0xE0001FE0)
T20B8 000:181.529   [0][1]: E0001000 CID B105E00D PID 003BB002 DWT
T20B8 000:181.596   CPU_ReadMem(32 bytes @ 0xE0002FE0)
T20B8 000:185.859   [0][2]: E0002000 CID B105E00D PID 002BB003 FPB
T20B8 000:185.920   CPU_ReadMem(32 bytes @ 0xE0000FE0)
T20B8 000:189.761   [0][3]: E0000000 CID B105E00D PID 003BB001 ITM
T20B8 000:189.812   CPU_ReadMem(32 bytes @ 0xE0040FE0)
T20B8 000:193.878   [0][4]: E0040000 CID B105900D PID 000BB9A1 TPIU
T20B8 000:194.592 - 82.074ms returns 0x2BA01477
T20B8 000:194.652 JLINK_GetDLLVersion()
T20B8 000:194.673 - 0.020ms returns 84200
T20B8 000:194.697 JLINK_CORE_GetFound()
T20B8 000:194.717 - 0.020ms returns 0xE0000FF
T20B8 000:194.743 JLINK_GetDebugInfo(0x100 = JLINKARM_ROM_TABLE_ADDR_INDEX)
T20B8 000:194.764   Value=0xE00FF000
T20B8 000:194.794 - 0.053ms returns 0
T20B8 000:197.004 JLINK_GetDebugInfo(0x100 = JLINKARM_ROM_TABLE_ADDR_INDEX)
T20B8 000:197.039   Value=0xE00FF000
T20B8 000:197.070 - 0.066ms returns 0
T20B8 000:197.091 JLINK_GetDebugInfo(0x101 = JLINKARM_DEBUG_INFO_ETM_ADDR_INDEX)
T20B8 000:197.111   Value=0x00000000
T20B8 000:197.141 - 0.049ms returns 0
T20B8 000:197.164 JLINK_ReadMemEx(0xE0041FF0, 0x10 Bytes, Flags = 0x02000004)
T20B8 000:197.238   CPU_ReadMem(16 bytes @ 0xE0041FF0)
T20B8 000:198.057   Data:  00 00 00 00 00 00 00 00 00 00 00 00 00 00 00 00
T20B8 000:198.098 - 0.934ms returns 16 (0x10)
T20B8 000:198.121 JLINK_GetDebugInfo(0x102 = JLINKARM_DEBUG_INFO_MTB_ADDR_INDEX)
T20B8 000:198.141   Value=0x00000000
T20B8 000:198.170 - 0.050ms returns 0
T20B8 000:198.191 JLINK_GetDebugInfo(0x103 = JLINKARM_DEBUG_INFO_TPIU_ADDR_INDEX)
T20B8 000:198.211   Value=0xE0040000
T20B8 000:198.240 - 0.049ms returns 0
T20B8 000:198.261 JLINK_GetDebugInfo(0x104 = JLINKARM_DEBUG_INFO_ITM_ADDR_INDEX)
T20B8 000:198.280   Value=0xE0000000
T20B8 000:198.310 - 0.049ms returns 0
T20B8 000:198.338 JLINK_GetDebugInfo(0x105 = JLINKARM_DEBUG_INFO_DWT_ADDR_INDEX)
T20B8 000:198.357   Value=0xE0001000
T20B8 000:198.387 - 0.049ms returns 0
T20B8 000:198.407 JLINK_GetDebugInfo(0x106 = JLINKARM_DEBUG_INFO_FPB_ADDR_INDEX)
T20B8 000:198.427   Value=0xE0002000
T20B8 000:198.456 - 0.049ms returns 0
T20B8 000:198.477 JLINK_GetDebugInfo(0x107 = JLINKARM_DEBUG_INFO_NVIC_ADDR_INDEX)
T20B8 000:198.497   Value=0xE000E000
T20B8 000:198.526 - 0.049ms returns 0
T20B8 000:198.547 JLINK_GetDebugInfo(0x10C = JLINKARM_DEBUG_INFO_DBG_ADDR_INDEX)
T20B8 000:198.567   Value=0xE000EDF0
T20B8 000:198.596 - 0.049ms returns 0
T20B8 000:198.630 JLINK_GetDebugInfo(0x01 = Unknown)
T20B8 000:198.649   Value=0x00000001
T20B8 000:198.678 - 0.057ms returns 0
T20B8 000:198.700 JLINK_ReadMemU32(0xE000ED00, 0x1 Items)
T20B8 000:198.724   CPU_ReadMem(4 bytes @ 0xE000ED00)
T20B8 000:199.494   Data:  41 C2 0F 41
T20B8 000:199.536   Debug reg: CPUID
T20B8 000:199.566 - 0.865ms returns 1 (0x1)
T20B8 000:199.589 JLINK_GetDebugInfo(0x10F = JLINKARM_DEBUG_INFO_HAS_CORTEX_M_SECURITY_EXT_INDEX)
T20B8 000:199.609   Value=0x00000000
T20B8 000:199.639 - 0.050ms returns 0
T20B8 000:199.660 JLINK_HasError()
T20B8 000:199.682 JLINK_SetResetType(JLINKARM_CM3_RESET_TYPE_NORMAL)
T20B8 000:199.703 - 0.021ms returns JLINKARM_CM3_RESET_TYPE_NORMAL
T20B8 000:199.724 JLINK_Reset()
T20B8 000:199.749   JLINK_GetResetTypeDesc
T20B8 000:199.769   - 0.021ms 
T20B8 000:203.210   Reset type: NORMAL (https://wiki.segger.com/J-Link_Reset_Strategies)
T20B8 000:203.283   CPU is running
T20B8 000:203.316   CPU_WriteMem(4 bytes @ 0xE000EDF0)
T20B8 000:204.108   CPU is running
T20B8 000:204.180   CPU_WriteMem(4 bytes @ 0xE000EDFC)
T20B8 000:207.383   Reset: Halt core after reset via DEMCR.VC_CORERESET.
T20B8 000:213.998   Reset: Reset device via AIRCR.SYSRESETREQ.
T20B8 000:214.108   CPU is running
T20B8 000:214.152   CPU_WriteMem(4 bytes @ 0xE000ED0C)
T20B8 000:269.919   CPU_ReadMem(4 bytes @ 0xE000EDF0)
T20B8 000:270.859   CPU_ReadMem(4 bytes @ 0xE000EDF0)
T20B8 000:274.705   CPU_WriteMem(4 bytes @ 0xE000EDFC)
T20B8 000:282.022   CPU_ReadMem(4 bytes @ 0xE000EDF0)
T20B8 000:285.689   CPU_WriteMem(4 bytes @ 0xE0002000)
T20B8 000:286.500   CPU_ReadMem(4 bytes @ 0xE000EDFC)
T20B8 000:287.441   CPU_ReadMem(4 bytes @ 0xE0001000)
T20B8 000:288.222 - 88.496ms 
T20B8 000:288.300 JLINK_Halt()
T20B8 000:288.333 - 0.033ms returns 0x00
T20B8 000:288.371 JLINK_ReadMemU32(0xE000EDF0, 0x1 Items)
T20B8 000:288.415   CPU_ReadMem(4 bytes @ 0xE000EDF0)
T20B8 000:289.188   Data:  03 00 03 00
T20B8 000:289.232   Debug reg: DHCSR
T20B8 000:289.265 - 0.894ms returns 1 (0x1)
T20B8 000:289.295 JLINK_WriteU32(0xE000EDF0, 0xA05F0003)
T20B8 000:289.317   Debug reg: DHCSR
T20B8 000:289.745   CPU_WriteMem(4 bytes @ 0xE000EDF0)
T20B8 000:290.596 - 1.301ms returns 0 (0x00000000)
T20B8 000:290.666 JLINK_WriteU32(0xE000EDFC, 0x01000000)
T20B8 000:290.704   Debug reg: DEMCR
T20B8 000:290.765   CPU_WriteMem(4 bytes @ 0xE000EDFC)
T20B8 000:291.675 - 1.009ms returns 0 (0x00000000)
T20B8 000:304.947 JLINK_GetHWStatus(...)
T20B8 000:305.677 - 0.729ms returns 0
T20B8 000:313.428 JLINK_GetNumBPUnits(Type = 0xFFFFFF00)
T20B8 000:313.487 - 0.058ms returns 0x06
T20B8 000:313.509 JLINK_GetNumBPUnits(Type = 0xF0)
T20B8 000:313.530 - 0.021ms returns 0x2000
T20B8 000:313.551 JLINK_GetNumWPUnits()
T20B8 000:313.571 - 0.019ms returns 4
T20B8 000:320.470 JLINK_GetSpeed()
T20B8 000:320.517 - 0.046ms returns 4000
T20B8 000:325.406 JLINK_ReadMemU32(0xE000E004, 0x1 Items)
T20B8 000:325.484   CPU_ReadMem(4 bytes @ 0xE000E004)
T20B8 000:326.355   Data:  04 00 00 00
T20B8 000:326.406 - 0.998ms returns 1 (0x1)
T20B8 000:326.429 JLINK_ReadMemU32(0xE000E004, 0x1 Items)
T20B8 000:326.453   CPU_ReadMem(4 bytes @ 0xE000E004)
T20B8 000:327.190   Data:  04 00 00 00
T20B8 000:327.234 - 0.804ms returns 1 (0x1)
T20B8 000:327.258 JLINK_WriteMemEx(0xE0001000, 0x0000001C Bytes, Flags = 0x02000004)
T20B8 000:327.278   Data:  01 00 00 00 00 00 00 00 00 00 00 00 00 00 00 00 ...
T20B8 000:327.317   CPU_WriteMem(28 bytes @ 0xE0001000)
T20B8 000:328.175 - 0.918ms returns 0x1C
T20B8 000:328.206 JLINK_Halt()
T20B8 000:328.239 - 0.033ms returns 0x00
T20B8 000:328.272 JLINK_IsHalted()
T20B8 000:328.305 - 0.033ms returns TRUE
T20B8 000:334.042 JLINK_WriteMem(0x1FFF8000, 0x670 Bytes, ...)
T20B8 000:334.115   Data:  00 BE 0A E0 0D 78 2D 06 68 40 08 24 40 00 00 D3 ...
T20B8 000:334.571   CPU_WriteMem(1648 bytes @ 0x1FFF8000)
T20B8 000:340.729 - 6.685ms returns 0x670
T20B8 000:340.887 JLINK_HasError()
T20B8 000:340.927 JLINK_WriteReg(R0, 0x00000000)
T20B8 000:340.966 - 0.039ms returns 0
T20B8 000:340.998 JLINK_WriteReg(R1, 0x00B71B00)
T20B8 000:341.030 - 0.031ms returns 0
T20B8 000:341.063 JLINK_WriteReg(R2, 0x00000001)
T20B8 000:341.095 - 0.031ms returns 0
T20B8 000:341.128 JLINK_WriteReg(R3, 0x00000000)
T20B8 000:341.160 - 0.032ms returns 0
T20B8 000:341.192 JLINK_WriteReg(R4, 0x00000000)
T20B8 000:341.223 - 0.030ms returns 0
T20B8 000:341.256 JLINK_WriteReg(R5, 0x00000000)
T20B8 000:341.287 - 0.031ms returns 0
T20B8 000:341.320 JLINK_WriteReg(R6, 0x00000000)
T20B8 000:341.351 - 0.031ms returns 0
T20B8 000:341.383 JLINK_WriteReg(R7, 0x00000000)
T20B8 000:341.415 - 0.031ms returns 0
T20B8 000:341.447 JLINK_WriteReg(R8, 0x00000000)
T20B8 000:341.479 - 0.031ms returns 0
T20B8 000:341.512 JLINK_WriteReg(R9, 0x1FFF866C)
T20B8 000:341.543 - 0.031ms returns 0
T20B8 000:341.575 JLINK_WriteReg(R10, 0x00000000)
T20B8 000:341.607 - 0.032ms returns 0
T20B8 000:341.639 JLINK_WriteReg(R11, 0x00000000)
T20B8 000:341.672 - 0.032ms returns 0
T20B8 000:341.707 JLINK_WriteReg(R12, 0x00000000)
T20B8 000:341.732 - 0.025ms returns 0
T20B8 000:341.753 JLINK_WriteReg(R13 (SP), 0x1FFF9000)
T20B8 000:341.774 - 0.021ms returns 0
T20B8 000:341.794 JLINK_WriteReg(R14, 0x1FFF8001)
T20B8 000:341.814 - 0.019ms returns 0
T20B8 000:341.865 JLINK_WriteReg(R15 (PC), 0x1FFF8478)
T20B8 000:341.885 - 0.050ms returns 0
T20B8 000:341.906 JLINK_WriteReg(XPSR, 0x01000000)
T20B8 000:341.925 - 0.019ms returns 0
T20B8 000:341.946 JLINK_WriteReg(MSP, 0x1FFF9000)
T20B8 000:341.966 - 0.019ms returns 0
T20B8 000:341.987 JLINK_WriteReg(PSP, 0x1FFF9000)
T20B8 000:342.006 - 0.019ms returns 0
T20B8 000:342.027 JLINK_WriteReg(CFBP, 0x00000000)
T20B8 000:342.046 - 0.019ms returns 0
T20B8 000:342.067 JLINK_SetBPEx(Addr = 0x1FFF8000, Type = 0xFFFFFFF2)
T20B8 000:342.091 - 0.023ms returns 0x00000001
T20B8 000:342.119 JLINK_Go()
T20B8 000:342.148   CPU_WriteMem(4 bytes @ 0xE0002000)
T20B8 000:343.042   CPU_ReadMem(4 bytes @ 0xE0001000)
T20B8 000:343.809   CPU_WriteMem(4 bytes @ 0xE0002008)
T20B8 000:343.885   CPU_WriteMem(4 bytes @ 0xE000200C)
T20B8 000:343.937   CPU_WriteMem(4 bytes @ 0xE0002010)
T20B8 000:343.988   CPU_WriteMem(4 bytes @ 0xE0002014)
T20B8 000:344.039   CPU_WriteMem(4 bytes @ 0xE0002018)
T20B8 000:344.090   CPU_WriteMem(4 bytes @ 0xE000201C)
T20B8 000:345.716   CPU_WriteMem(4 bytes @ 0xE0001004)
T20B8 000:355.215   Memory map 'after startup completion point' is active
T20B8 000:355.348 - 13.228ms 
T20B8 000:355.386 JLINK_IsHalted()
T20B8 000:358.327 - 2.940ms returns TRUE
T20B8 000:358.403 JLINK_ReadReg(R15 (PC))
T20B8 000:358.447 - 0.043ms returns 0x1FFF8000
T20B8 000:358.484 JLINK_ClrBPEx(BPHandle = 0x00000001)
T20B8 000:358.517 - 0.033ms returns 0x00
T20B8 000:358.554 JLINK_ReadReg(R0)
T20B8 000:358.586 - 0.032ms returns 0x00000000
T20B8 000:359.007 JLINK_HasError()
T20B8 000:359.056 JLINK_WriteReg(R0, 0x00000000)
T20B8 000:359.090 - 0.034ms returns 0
T20B8 000:359.123 JLINK_WriteReg(R1, 0x00002000)
T20B8 000:359.156 - 0.032ms returns 0
T20B8 000:359.189 JLINK_WriteReg(R2, 0x000000FF)
T20B8 000:359.220 - 0.031ms returns 0
T20B8 000:359.260 JLINK_WriteReg(R3, 0x00000000)
T20B8 000:359.299 - 0.038ms returns 0
T20B8 000:359.332 JLINK_WriteReg(R4, 0x00000000)
T20B8 000:359.363 - 0.031ms returns 0
T20B8 000:359.396 JLINK_WriteReg(R5, 0x00000000)
T20B8 000:359.430 - 0.034ms returns 0
T20B8 000:359.464 JLINK_WriteReg(R6, 0x00000000)
T20B8 000:359.495 - 0.031ms returns 0
T20B8 000:359.528 JLINK_WriteReg(R7, 0x00000000)
T20B8 000:359.560 - 0.031ms returns 0
T20B8 000:359.593 JLINK_WriteReg(R8, 0x00000000)
T20B8 000:359.624 - 0.031ms returns 0
T20B8 000:359.658 JLINK_WriteReg(R9, 0x1FFF866C)
T20B8 000:359.678 - 0.020ms returns 0
T20B8 000:359.699 JLINK_WriteReg(R10, 0x00000000)
T20B8 000:359.720 - 0.020ms returns 0
T20B8 000:359.740 JLINK_WriteReg(R11, 0x00000000)
T20B8 000:359.760 - 0.019ms returns 0
T20B8 000:359.781 JLINK_WriteReg(R12, 0x00000000)
T20B8 000:359.801 - 0.020ms returns 0
T20B8 000:359.822 JLINK_WriteReg(R13 (SP), 0x1FFF9000)
T20B8 000:359.843 - 0.021ms returns 0
T20B8 000:359.864 JLINK_WriteReg(R14, 0x1FFF8001)
T20B8 000:359.884 - 0.020ms returns 0
T20B8 000:359.905 JLINK_WriteReg(R15 (PC), 0x1FFF8020)
T20B8 000:359.925 - 0.020ms returns 0
T20B8 000:359.946 JLINK_WriteReg(XPSR, 0x01000000)
T20B8 000:359.966 - 0.019ms returns 0
T20B8 000:359.987 JLINK_WriteReg(MSP, 0x1FFF9000)
T20B8 000:360.007 - 0.020ms returns 0
T20B8 000:360.028 JLINK_WriteReg(PSP, 0x1FFF9000)
T20B8 000:360.053 - 0.025ms returns 0
T20B8 000:360.074 JLINK_WriteReg(CFBP, 0x00000000)
T20B8 000:360.094 - 0.020ms returns 0
T20B8 000:360.115 JLINK_SetBPEx(Addr = 0x1FFF8000, Type = 0xFFFFFFF2)
T20B8 000:360.137 - 0.022ms returns 0x00000002
T20B8 000:360.158 JLINK_Go()
T20B8 000:360.187   CPU_WriteMem(4 bytes @ 0xE0002000)
T20B8 000:361.020   CPU_ReadMem(4 bytes @ 0xE0001000)
T20B8 000:364.566 - 4.407ms 
T20B8 000:364.645 JLINK_IsHalted()
T20B8 000:367.573 - 2.927ms returns TRUE
T20B8 000:367.622 JLINK_ReadReg(R15 (PC))
T20B8 000:367.746 - 0.123ms returns 0x1FFF8000
T20B8 000:367.774 JLINK_ClrBPEx(BPHandle = 0x00000002)
T20B8 000:367.794 - 0.020ms returns 0x00
T20B8 000:367.821 JLINK_ReadReg(R0)
T20B8 000:367.857 - 0.036ms returns 0x00000001
T20B8 000:367.894 JLINK_HasError()
T20B8 000:367.931 JLINK_WriteReg(R0, 0x00000000)
T20B8 000:367.967 - 0.036ms returns 0
T20B8 000:368.003 JLINK_WriteReg(R1, 0x00002000)
T20B8 000:368.037 - 0.034ms returns 0
T20B8 000:368.072 JLINK_WriteReg(R2, 0x000000FF)
T20B8 000:368.106 - 0.034ms returns 0
T20B8 000:368.141 JLINK_WriteReg(R3, 0x00000000)
T20B8 000:368.175 - 0.033ms returns 0
T20B8 000:368.211 JLINK_WriteReg(R4, 0x00000000)
T20B8 000:368.245 - 0.034ms returns 0
T20B8 000:368.280 JLINK_WriteReg(R5, 0x00000000)
T20B8 000:368.315 - 0.034ms returns 0
T20B8 000:368.350 JLINK_WriteReg(R6, 0x00000000)
T20B8 000:368.384 - 0.034ms returns 0
T20B8 000:368.419 JLINK_WriteReg(R7, 0x00000000)
T20B8 000:368.453 - 0.034ms returns 0
T20B8 000:368.489 JLINK_WriteReg(R8, 0x00000000)
T20B8 000:368.523 - 0.034ms returns 0
T20B8 000:368.558 JLINK_WriteReg(R9, 0x1FFF866C)
T20B8 000:368.593 - 0.034ms returns 0
T20B8 000:368.628 JLINK_WriteReg(R10, 0x00000000)
T20B8 000:368.662 - 0.034ms returns 0
T20B8 000:368.698 JLINK_WriteReg(R11, 0x00000000)
T20B8 000:368.733 - 0.035ms returns 0
T20B8 000:368.768 JLINK_WriteReg(R12, 0x00000000)
T20B8 000:368.802 - 0.034ms returns 0
T20B8 000:368.838 JLINK_WriteReg(R13 (SP), 0x1FFF9000)
T20B8 000:368.872 - 0.034ms returns 0
T20B8 000:368.907 JLINK_WriteReg(R14, 0x1FFF8001)
T20B8 000:368.941 - 0.034ms returns 0
T20B8 000:368.977 JLINK_WriteReg(R15 (PC), 0x1FFF813E)
T20B8 000:369.011 - 0.033ms returns 0
T20B8 000:369.031 JLINK_WriteReg(XPSR, 0x01000000)
T20B8 000:369.051 - 0.020ms returns 0
T20B8 000:369.072 JLINK_WriteReg(MSP, 0x1FFF9000)
T20B8 000:369.092 - 0.020ms returns 0
T20B8 000:369.112 JLINK_WriteReg(PSP, 0x1FFF9000)
T20B8 000:369.132 - 0.020ms returns 0
T20B8 000:369.153 JLINK_WriteReg(CFBP, 0x00000000)
T20B8 000:369.173 - 0.020ms returns 0
T20B8 000:369.194 JLINK_SetBPEx(Addr = 0x1FFF8000, Type = 0xFFFFFFF2)
T20B8 000:369.214 - 0.020ms returns 0x00000003
T20B8 000:369.235 JLINK_Go()
T20B8 000:369.261   CPU_WriteMem(4 bytes @ 0xE0002000)
T20B8 000:370.095   CPU_ReadMem(4 bytes @ 0xE0001000)
T20B8 000:373.675 - 4.438ms 
T20B8 000:373.753 JLINK_IsHalted()
T20B8 000:374.479 - 0.725ms returns FALSE
T20B8 000:374.541 JLINK_HasError()
T20B8 000:417.193 JLINK_IsHalted()
T20B8 000:420.411 - 3.215ms returns TRUE
T20B8 000:420.479 JLINK_ReadReg(R15 (PC))
T20B8 000:420.525 - 0.045ms returns 0x1FFF8000
T20B8 000:420.566 JLINK_ClrBPEx(BPHandle = 0x00000003)
T20B8 000:420.602 - 0.036ms returns 0x00
T20B8 000:420.637 JLINK_ReadReg(R0)
T20B8 000:420.671 - 0.034ms returns 0x00000000
T20B8 000:421.425 JLINK_HasError()
T20B8 000:421.483 JLINK_WriteReg(R0, 0x00002000)
T20B8 000:421.518 - 0.035ms returns 0
T20B8 000:421.551 JLINK_WriteReg(R1, 0x00002000)
T20B8 000:421.582 - 0.031ms returns 0
T20B8 000:421.614 JLINK_WriteReg(R2, 0x000000FF)
T20B8 000:421.646 - 0.031ms returns 0
T20B8 000:421.678 JLINK_WriteReg(R3, 0x00000000)
T20B8 000:421.710 - 0.031ms returns 0
T20B8 000:421.744 JLINK_WriteReg(R4, 0x00000000)
T20B8 000:421.775 - 0.031ms returns 0
T20B8 000:421.808 JLINK_WriteReg(R5, 0x00000000)
T20B8 000:421.840 - 0.031ms returns 0
T20B8 000:421.872 JLINK_WriteReg(R6, 0x00000000)
T20B8 000:421.904 - 0.032ms returns 0
T20B8 000:421.937 JLINK_WriteReg(R7, 0x00000000)
T20B8 000:421.968 - 0.031ms returns 0
T20B8 000:422.002 JLINK_WriteReg(R8, 0x00000000)
T20B8 000:422.024 - 0.022ms returns 0
T20B8 000:422.045 JLINK_WriteReg(R9, 0x1FFF866C)
T20B8 000:422.067 - 0.021ms returns 0
T20B8 000:422.088 JLINK_WriteReg(R10, 0x00000000)
T20B8 000:422.124 - 0.035ms returns 0
T20B8 000:422.147 JLINK_WriteReg(R11, 0x00000000)
T20B8 000:422.171 - 0.023ms returns 0
T20B8 000:422.194 JLINK_WriteReg(R12, 0x00000000)
T20B8 000:422.216 - 0.022ms returns 0
T20B8 000:422.238 JLINK_WriteReg(R13 (SP), 0x1FFF9000)
T20B8 000:422.259 - 0.021ms returns 0
T20B8 000:422.312 JLINK_WriteReg(R14, 0x1FFF8001)
T20B8 000:422.334 - 0.021ms returns 0
T20B8 000:422.359 JLINK_WriteReg(R15 (PC), 0x1FFF8020)
T20B8 000:422.383 - 0.024ms returns 0
T20B8 000:422.406 JLINK_WriteReg(XPSR, 0x01000000)
T20B8 000:422.432 - 0.027ms returns 0
T20B8 000:422.454 JLINK_WriteReg(MSP, 0x1FFF9000)
T20B8 000:422.478 - 0.024ms returns 0
T20B8 000:422.503 JLINK_WriteReg(PSP, 0x1FFF9000)
T20B8 000:422.524 - 0.020ms returns 0
T20B8 000:422.545 JLINK_WriteReg(CFBP, 0x00000000)
T20B8 000:422.567 - 0.021ms returns 0
T20B8 000:422.593 JLINK_SetBPEx(Addr = 0x1FFF8000, Type = 0xFFFFFFF2)
T20B8 000:422.617 - 0.024ms returns 0x00000004
T20B8 000:422.640 JLINK_Go()
T20B8 000:422.680   CPU_WriteMem(4 bytes @ 0xE0002000)
T20B8 000:423.482   CPU_ReadMem(4 bytes @ 0xE0001000)
T20B8 000:427.079 - 4.437ms 
T20B8 000:427.134 JLINK_IsHalted()
T20B8 000:429.912 - 2.778ms returns TRUE
T20B8 000:429.954 JLINK_ReadReg(R15 (PC))
T20B8 000:429.988 - 0.033ms returns 0x1FFF8000
T20B8 000:430.021 JLINK_ClrBPEx(BPHandle = 0x00000004)
T20B8 000:430.053 - 0.032ms returns 0x00
T20B8 000:430.085 JLINK_ReadReg(R0)
T20B8 000:430.116 - 0.031ms returns 0x00000001
T20B8 000:430.149 JLINK_HasError()
T20B8 000:430.182 JLINK_WriteReg(R0, 0x00002000)
T20B8 000:430.214 - 0.031ms returns 0
T20B8 000:430.251 JLINK_WriteReg(R1, 0x00002000)
T20B8 000:430.284 - 0.033ms returns 0
T20B8 000:430.321 JLINK_WriteReg(R2, 0x000000FF)
T20B8 000:430.359 - 0.038ms returns 0
T20B8 000:430.393 JLINK_WriteReg(R3, 0x00000000)
T20B8 000:430.430 - 0.036ms returns 0
T20B8 000:430.470 JLINK_WriteReg(R4, 0x00000000)
T20B8 000:430.510 - 0.039ms returns 0
T20B8 000:430.543 JLINK_WriteReg(R5, 0x00000000)
T20B8 000:430.575 - 0.031ms returns 0
T20B8 000:430.610 JLINK_WriteReg(R6, 0x00000000)
T20B8 000:430.648 - 0.038ms returns 0
T20B8 000:430.681 JLINK_WriteReg(R7, 0x00000000)
T20B8 000:430.713 - 0.032ms returns 0
T20B8 000:430.746 JLINK_WriteReg(R8, 0x00000000)
T20B8 000:430.777 - 0.031ms returns 0
T20B8 000:430.810 JLINK_WriteReg(R9, 0x1FFF866C)
T20B8 000:430.841 - 0.031ms returns 0
T20B8 000:430.873 JLINK_WriteReg(R10, 0x00000000)
T20B8 000:430.911 - 0.037ms returns 0
T20B8 000:430.945 JLINK_WriteReg(R11, 0x00000000)
T20B8 000:430.977 - 0.032ms returns 0
T20B8 000:431.009 JLINK_WriteReg(R12, 0x00000000)
T20B8 000:431.040 - 0.031ms returns 0
T20B8 000:431.073 JLINK_WriteReg(R13 (SP), 0x1FFF9000)
T20B8 000:431.106 - 0.032ms returns 0
T20B8 000:431.138 JLINK_WriteReg(R14, 0x1FFF8001)
T20B8 000:431.170 - 0.031ms returns 0
T20B8 000:431.202 JLINK_WriteReg(R15 (PC), 0x1FFF813E)
T20B8 000:431.236 - 0.034ms returns 0
T20B8 000:431.269 JLINK_WriteReg(XPSR, 0x01000000)
T20B8 000:431.301 - 0.031ms returns 0
T20B8 000:431.333 JLINK_WriteReg(MSP, 0x1FFF9000)
T20B8 000:431.365 - 0.031ms returns 0
T20B8 000:431.397 JLINK_WriteReg(PSP, 0x1FFF9000)
T20B8 000:431.428 - 0.030ms returns 0
T20B8 000:431.460 JLINK_WriteReg(CFBP, 0x00000000)
T20B8 000:431.492 - 0.031ms returns 0
T20B8 000:431.525 JLINK_SetBPEx(Addr = 0x1FFF8000, Type = 0xFFFFFFF2)
T20B8 000:431.560 - 0.035ms returns 0x00000005
T20B8 000:431.585 JLINK_Go()
T20B8 000:431.612   CPU_WriteMem(4 bytes @ 0xE0002000)
T20B8 000:432.356   CPU_ReadMem(4 bytes @ 0xE0001000)
T20B8 000:436.044 - 4.459ms 
T20B8 000:436.109 JLINK_IsHalted()
T20B8 000:436.827 - 0.717ms returns FALSE
T20B8 000:436.866 JLINK_HasError()
T20B8 000:438.264 JLINK_IsHalted()
T20B8 000:439.071 - 0.806ms returns FALSE
T20B8 000:439.108 JLINK_HasError()
T20B8 000:440.253 JLINK_IsHalted()
T20B8 000:441.109 - 0.855ms returns FALSE
T20B8 000:441.172 JLINK_HasError()
T20B8 000:442.481 JLINK_IsHalted()
T20B8 000:443.323 - 0.841ms returns FALSE
T20B8 000:443.368 JLINK_HasError()
T20B8 000:444.559 JLINK_IsHalted()
T20B8 000:445.575 - 1.016ms returns FALSE
T20B8 000:445.608 JLINK_HasError()
T20B8 000:447.106 JLINK_IsHalted()
T20B8 000:447.842 - 0.735ms returns FALSE
T20B8 000:447.898 JLINK_HasError()
T20B8 000:449.525 JLINK_IsHalted()
T20B8 000:452.603 - 3.075ms returns TRUE
T20B8 000:452.700 JLINK_ReadReg(R15 (PC))
T20B8 000:452.756 - 0.055ms returns 0x1FFF8000
T20B8 000:452.795 JLINK_ClrBPEx(BPHandle = 0x00000005)
T20B8 000:452.839 - 0.044ms returns 0x00
T20B8 000:452.879 JLINK_ReadReg(R0)
T20B8 000:452.915 - 0.037ms returns 0x00000000
T20B8 000:453.679 JLINK_HasError()
T20B8 000:453.715 JLINK_WriteReg(R0, 0x00004000)
T20B8 000:453.737 - 0.022ms returns 0
T20B8 000:453.758 JLINK_WriteReg(R1, 0x00002000)
T20B8 000:453.778 - 0.020ms returns 0
T20B8 000:453.800 JLINK_WriteReg(R2, 0x000000FF)
T20B8 000:453.820 - 0.020ms returns 0
T20B8 000:453.841 JLINK_WriteReg(R3, 0x00000000)
T20B8 000:453.862 - 0.021ms returns 0
T20B8 000:453.884 JLINK_WriteReg(R4, 0x00000000)
T20B8 000:453.905 - 0.021ms returns 0
T20B8 000:453.926 JLINK_WriteReg(R5, 0x00000000)
T20B8 000:453.946 - 0.020ms returns 0
T20B8 000:453.966 JLINK_WriteReg(R6, 0x00000000)
T20B8 000:453.987 - 0.020ms returns 0
T20B8 000:454.008 JLINK_WriteReg(R7, 0x00000000)
T20B8 000:454.028 - 0.019ms returns 0
T20B8 000:454.048 JLINK_WriteReg(R8, 0x00000000)
T20B8 000:454.068 - 0.020ms returns 0
T20B8 000:454.089 JLINK_WriteReg(R9, 0x1FFF866C)
T20B8 000:454.108 - 0.019ms returns 0
T20B8 000:454.129 JLINK_WriteReg(R10, 0x00000000)
T20B8 000:454.149 - 0.020ms returns 0
T20B8 000:454.171 JLINK_WriteReg(R11, 0x00000000)
T20B8 000:454.191 - 0.020ms returns 0
T20B8 000:454.211 JLINK_WriteReg(R12, 0x00000000)
T20B8 000:454.232 - 0.019ms returns 0
T20B8 000:454.253 JLINK_WriteReg(R13 (SP), 0x1FFF9000)
T20B8 000:454.273 - 0.021ms returns 0
T20B8 000:454.300 JLINK_WriteReg(R14, 0x1FFF8001)
T20B8 000:454.320 - 0.020ms returns 0
T20B8 000:454.341 JLINK_WriteReg(R15 (PC), 0x1FFF8020)
T20B8 000:454.361 - 0.020ms returns 0
T20B8 000:454.382 JLINK_WriteReg(XPSR, 0x01000000)
T20B8 000:454.402 - 0.020ms returns 0
T20B8 000:454.423 JLINK_WriteReg(MSP, 0x1FFF9000)
T20B8 000:454.443 - 0.020ms returns 0
T20B8 000:454.464 JLINK_WriteReg(PSP, 0x1FFF9000)
T20B8 000:454.484 - 0.020ms returns 0
T20B8 000:454.505 JLINK_WriteReg(CFBP, 0x00000000)
T20B8 000:454.525 - 0.020ms returns 0
T20B8 000:454.546 JLINK_SetBPEx(Addr = 0x1FFF8000, Type = 0xFFFFFFF2)
T20B8 000:454.567 - 0.022ms returns 0x00000006
T20B8 000:454.588 JLINK_Go()
T20B8 000:454.617   CPU_WriteMem(4 bytes @ 0xE0002000)
T20B8 000:455.357   CPU_ReadMem(4 bytes @ 0xE0001000)
T20B8 000:459.050 - 4.459ms 
T20B8 000:459.109 JLINK_IsHalted()
T20B8 000:462.056 - 2.946ms returns TRUE
T20B8 000:462.136 JLINK_ReadReg(R15 (PC))
T20B8 000:462.183 - 0.046ms returns 0x1FFF8000
T20B8 000:462.229 JLINK_ClrBPEx(BPHandle = 0x00000006)
T20B8 000:462.273 - 0.045ms returns 0x00
T20B8 000:462.313 JLINK_ReadReg(R0)
T20B8 000:462.359 - 0.046ms returns 0x00000001
T20B8 000:462.398 JLINK_HasError()
T20B8 000:462.437 JLINK_WriteReg(R0, 0x00004000)
T20B8 000:462.473 - 0.035ms returns 0
T20B8 000:462.511 JLINK_WriteReg(R1, 0x00002000)
T20B8 000:462.545 - 0.034ms returns 0
T20B8 000:462.574 JLINK_WriteReg(R2, 0x000000FF)
T20B8 000:462.594 - 0.020ms returns 0
T20B8 000:462.616 JLINK_WriteReg(R3, 0x00000000)
T20B8 000:462.637 - 0.021ms returns 0
T20B8 000:462.659 JLINK_WriteReg(R4, 0x00000000)
T20B8 000:462.679 - 0.020ms returns 0
T20B8 000:462.704 JLINK_WriteReg(R5, 0x00000000)
T20B8 000:462.724 - 0.019ms returns 0
T20B8 000:462.746 JLINK_WriteReg(R6, 0x00000000)
T20B8 000:462.766 - 0.020ms returns 0
T20B8 000:462.789 JLINK_WriteReg(R7, 0x00000000)
T20B8 000:462.809 - 0.020ms returns 0
T20B8 000:462.831 JLINK_WriteReg(R8, 0x00000000)
T20B8 000:462.852 - 0.021ms returns 0
T20B8 000:462.874 JLINK_WriteReg(R9, 0x1FFF866C)
T20B8 000:462.894 - 0.020ms returns 0
T20B8 000:462.917 JLINK_WriteReg(R10, 0x00000000)
T20B8 000:462.937 - 0.020ms returns 0
T20B8 000:462.959 JLINK_WriteReg(R11, 0x00000000)
T20B8 000:462.980 - 0.020ms returns 0
T20B8 000:463.002 JLINK_WriteReg(R12, 0x00000000)
T20B8 000:463.022 - 0.020ms returns 0
T20B8 000:463.045 JLINK_WriteReg(R13 (SP), 0x1FFF9000)
T20B8 000:463.065 - 0.020ms returns 0
T20B8 000:463.087 JLINK_WriteReg(R14, 0x1FFF8001)
T20B8 000:463.114 - 0.026ms returns 0
T20B8 000:463.139 JLINK_WriteReg(R15 (PC), 0x1FFF813E)
T20B8 000:463.159 - 0.020ms returns 0
T20B8 000:463.181 JLINK_WriteReg(XPSR, 0x01000000)
T20B8 000:463.201 - 0.019ms returns 0
T20B8 000:463.223 JLINK_WriteReg(MSP, 0x1FFF9000)
T20B8 000:463.243 - 0.020ms returns 0
T20B8 000:463.265 JLINK_WriteReg(PSP, 0x1FFF9000)
T20B8 000:463.285 - 0.020ms returns 0
T20B8 000:463.307 JLINK_WriteReg(CFBP, 0x00000000)
T20B8 000:463.327 - 0.019ms returns 0
T20B8 000:463.349 JLINK_SetBPEx(Addr = 0x1FFF8000, Type = 0xFFFFFFF2)
T20B8 000:463.370 - 0.020ms returns 0x00000007
T20B8 000:463.393 JLINK_Go()
T20B8 000:463.417   CPU_WriteMem(4 bytes @ 0xE0002000)
T20B8 000:464.200   CPU_ReadMem(4 bytes @ 0xE0001000)
T20B8 000:467.539 - 4.145ms 
T20B8 000:467.583 JLINK_IsHalted()
T20B8 000:468.323 - 0.739ms returns FALSE
T20B8 000:468.362 JLINK_HasError()
T20B8 000:471.428 JLINK_IsHalted()
T20B8 000:472.212 - 0.783ms returns FALSE
T20B8 000:472.267 JLINK_HasError()
T20B8 000:473.596 JLINK_IsHalted()
T20B8 000:474.351 - 0.754ms returns FALSE
T20B8 000:474.385 JLINK_HasError()
T20B8 000:477.555 JLINK_IsHalted()
T20B8 000:478.327 - 0.771ms returns FALSE
T20B8 000:478.381 JLINK_HasError()
T20B8 000:479.589 JLINK_IsHalted()
T20B8 000:480.413 - 0.823ms returns FALSE
T20B8 000:480.465 JLINK_HasError()
T20B8 000:481.582 JLINK_IsHalted()
T20B8 000:484.433 - 2.850ms returns TRUE
T20B8 000:484.482 JLINK_ReadReg(R15 (PC))
T20B8 000:484.519 - 0.036ms returns 0x1FFF8000
T20B8 000:484.552 JLINK_ClrBPEx(BPHandle = 0x00000007)
T20B8 000:484.585 - 0.033ms returns 0x00
T20B8 000:484.619 JLINK_ReadReg(R0)
T20B8 000:484.651 - 0.032ms returns 0x00000000
T20B8 000:485.581 JLINK_HasError()
T20B8 000:485.631 JLINK_WriteReg(R0, 0x00006000)
T20B8 000:485.661 - 0.031ms returns 0
T20B8 000:485.682 JLINK_WriteReg(R1, 0x00002000)
T20B8 000:485.702 - 0.020ms returns 0
T20B8 000:485.724 JLINK_WriteReg(R2, 0x000000FF)
T20B8 000:485.744 - 0.020ms returns 0
T20B8 000:485.765 JLINK_WriteReg(R3, 0x00000000)
T20B8 000:485.785 - 0.020ms returns 0
T20B8 000:485.806 JLINK_WriteReg(R4, 0x00000000)
T20B8 000:485.826 - 0.019ms returns 0
T20B8 000:485.847 JLINK_WriteReg(R5, 0x00000000)
T20B8 000:485.867 - 0.020ms returns 0
T20B8 000:485.889 JLINK_WriteReg(R6, 0x00000000)
T20B8 000:485.909 - 0.020ms returns 0
T20B8 000:485.929 JLINK_WriteReg(R7, 0x00000000)
T20B8 000:485.950 - 0.020ms returns 0
T20B8 000:485.971 JLINK_WriteReg(R8, 0x00000000)
T20B8 000:485.991 - 0.020ms returns 0
T20B8 000:486.012 JLINK_WriteReg(R9, 0x1FFF866C)
T20B8 000:486.032 - 0.020ms returns 0
T20B8 000:486.053 JLINK_WriteReg(R10, 0x00000000)
T20B8 000:486.074 - 0.021ms returns 0
T20B8 000:486.095 JLINK_WriteReg(R11, 0x00000000)
T20B8 000:486.116 - 0.020ms returns 0
T20B8 000:486.137 JLINK_WriteReg(R12, 0x00000000)
T20B8 000:486.165 - 0.028ms returns 0
T20B8 000:486.186 JLINK_WriteReg(R13 (SP), 0x1FFF9000)
T20B8 000:486.207 - 0.021ms returns 0
T20B8 000:486.228 JLINK_WriteReg(R14, 0x1FFF8001)
T20B8 000:486.248 - 0.020ms returns 0
T20B8 000:486.269 JLINK_WriteReg(R15 (PC), 0x1FFF8020)
T20B8 000:486.289 - 0.020ms returns 0
T20B8 000:486.311 JLINK_WriteReg(XPSR, 0x01000000)
T20B8 000:486.332 - 0.020ms returns 0
T20B8 000:486.353 JLINK_WriteReg(MSP, 0x1FFF9000)
T20B8 000:486.373 - 0.020ms returns 0
T20B8 000:486.395 JLINK_WriteReg(PSP, 0x1FFF9000)
T20B8 000:486.420 - 0.025ms returns 0
T20B8 000:486.442 JLINK_WriteReg(CFBP, 0x00000000)
T20B8 000:486.462 - 0.020ms returns 0
T20B8 000:486.484 JLINK_SetBPEx(Addr = 0x1FFF8000, Type = 0xFFFFFFF2)
T20B8 000:486.507 - 0.022ms returns 0x00000008
T20B8 000:486.528 JLINK_Go()
T20B8 000:486.556   CPU_WriteMem(4 bytes @ 0xE0002000)
T20B8 000:487.358   CPU_ReadMem(4 bytes @ 0xE0001000)
T20B8 000:491.042 - 4.512ms 
T20B8 000:491.093 JLINK_IsHalted()
T20B8 000:493.926 - 2.831ms returns TRUE
T20B8 000:493.997 JLINK_ReadReg(R15 (PC))
T20B8 000:494.034 - 0.036ms returns 0x1FFF8000
T20B8 000:494.070 JLINK_ClrBPEx(BPHandle = 0x00000008)
T20B8 000:494.102 - 0.032ms returns 0x00
T20B8 000:494.274 JLINK_ReadReg(R0)
T20B8 000:494.307 - 0.033ms returns 0x00000001
T20B8 000:494.342 JLINK_HasError()
T20B8 000:494.379 JLINK_WriteReg(R0, 0x00006000)
T20B8 000:494.412 - 0.032ms returns 0
T20B8 000:494.447 JLINK_WriteReg(R1, 0x00002000)
T20B8 000:494.478 - 0.031ms returns 0
T20B8 000:494.515 JLINK_WriteReg(R2, 0x000000FF)
T20B8 000:494.552 - 0.037ms returns 0
T20B8 000:494.588 JLINK_WriteReg(R3, 0x00000000)
T20B8 000:494.620 - 0.031ms returns 0
T20B8 000:494.655 JLINK_WriteReg(R4, 0x00000000)
T20B8 000:494.687 - 0.031ms returns 0
T20B8 000:494.721 JLINK_WriteReg(R5, 0x00000000)
T20B8 000:494.753 - 0.031ms returns 0
T20B8 000:494.788 JLINK_WriteReg(R6, 0x00000000)
T20B8 000:494.819 - 0.031ms returns 0
T20B8 000:494.854 JLINK_WriteReg(R7, 0x00000000)
T20B8 000:494.886 - 0.031ms returns 0
T20B8 000:494.921 JLINK_WriteReg(R8, 0x00000000)
T20B8 000:494.952 - 0.031ms returns 0
T20B8 000:494.987 JLINK_WriteReg(R9, 0x1FFF866C)
T20B8 000:495.018 - 0.031ms returns 0
T20B8 000:495.053 JLINK_WriteReg(R10, 0x00000000)
T20B8 000:495.085 - 0.031ms returns 0
T20B8 000:495.120 JLINK_WriteReg(R11, 0x00000000)
T20B8 000:495.151 - 0.031ms returns 0
T20B8 000:495.186 JLINK_WriteReg(R12, 0x00000000)
T20B8 000:495.218 - 0.031ms returns 0
T20B8 000:495.254 JLINK_WriteReg(R13 (SP), 0x1FFF9000)
T20B8 000:495.277 - 0.024ms returns 0
T20B8 000:495.299 JLINK_WriteReg(R14, 0x1FFF8001)
T20B8 000:495.319 - 0.020ms returns 0
T20B8 000:495.342 JLINK_WriteReg(R15 (PC), 0x1FFF813E)
T20B8 000:495.362 - 0.020ms returns 0
T20B8 000:495.384 JLINK_WriteReg(XPSR, 0x01000000)
T20B8 000:495.404 - 0.020ms returns 0
T20B8 000:495.427 JLINK_WriteReg(MSP, 0x1FFF9000)
T20B8 000:495.447 - 0.019ms returns 0
T20B8 000:495.469 JLINK_WriteReg(PSP, 0x1FFF9000)
T20B8 000:495.489 - 0.020ms returns 0
T20B8 000:495.512 JLINK_WriteReg(CFBP, 0x00000000)
T20B8 000:495.534 - 0.022ms returns 0
T20B8 000:495.557 JLINK_SetBPEx(Addr = 0x1FFF8000, Type = 0xFFFFFFF2)
T20B8 000:495.579 - 0.021ms returns 0x00000009
T20B8 000:495.602 JLINK_Go()
T20B8 000:495.626   CPU_WriteMem(4 bytes @ 0xE0002000)
T20B8 000:496.339   CPU_ReadMem(4 bytes @ 0xE0001000)
T20B8 000:499.777 - 4.174ms 
T20B8 000:499.834 JLINK_IsHalted()
T20B8 000:500.697 - 0.863ms returns FALSE
T20B8 000:500.754 JLINK_HasError()
T20B8 000:507.143 JLINK_IsHalted()
T20B8 000:508.027 - 0.883ms returns FALSE
T20B8 000:508.084 JLINK_HasError()
T20B8 000:510.026 JLINK_IsHalted()
T20B8 000:510.830 - 0.804ms returns FALSE
T20B8 000:510.883 JLINK_HasError()
T20B8 000:512.135 JLINK_IsHalted()
T20B8 000:512.851 - 0.715ms returns FALSE
T20B8 000:512.908 JLINK_HasError()
T20B8 000:514.664 JLINK_IsHalted()
T20B8 000:517.555 - 2.890ms returns TRUE
T20B8 000:517.597 JLINK_ReadReg(R15 (PC))
T20B8 000:517.634 - 0.037ms returns 0x1FFF8000
T20B8 000:517.667 JLINK_ClrBPEx(BPHandle = 0x00000009)
T20B8 000:517.700 - 0.033ms returns 0x00
T20B8 000:517.734 JLINK_ReadReg(R0)
T20B8 000:517.766 - 0.032ms returns 0x00000000
T20B8 000:518.428 JLINK_HasError()
T20B8 000:518.483 JLINK_WriteReg(R0, 0x00000001)
T20B8 000:518.518 - 0.034ms returns 0
T20B8 000:518.551 JLINK_WriteReg(R1, 0x00002000)
T20B8 000:518.582 - 0.031ms returns 0
T20B8 000:518.614 JLINK_WriteReg(R2, 0x000000FF)
T20B8 000:518.646 - 0.032ms returns 0
T20B8 000:518.678 JLINK_WriteReg(R3, 0x00000000)
T20B8 000:518.709 - 0.031ms returns 0
T20B8 000:518.741 JLINK_WriteReg(R4, 0x00000000)
T20B8 000:518.771 - 0.030ms returns 0
T20B8 000:518.803 JLINK_WriteReg(R5, 0x00000000)
T20B8 000:518.833 - 0.030ms returns 0
T20B8 000:518.865 JLINK_WriteReg(R6, 0x00000000)
T20B8 000:518.896 - 0.031ms returns 0
T20B8 000:518.927 JLINK_WriteReg(R7, 0x00000000)
T20B8 000:518.958 - 0.030ms returns 0
T20B8 000:518.989 JLINK_WriteReg(R8, 0x00000000)
T20B8 000:519.020 - 0.030ms returns 0
T20B8 000:519.051 JLINK_WriteReg(R9, 0x1FFF866C)
T20B8 000:519.082 - 0.030ms returns 0
T20B8 000:519.113 JLINK_WriteReg(R10, 0x00000000)
T20B8 000:519.144 - 0.030ms returns 0
T20B8 000:519.175 JLINK_WriteReg(R11, 0x00000000)
T20B8 000:519.219 - 0.043ms returns 0
T20B8 000:519.255 JLINK_WriteReg(R12, 0x00000000)
T20B8 000:519.286 - 0.030ms returns 0
T20B8 000:519.318 JLINK_WriteReg(R13 (SP), 0x1FFF9000)
T20B8 000:519.349 - 0.031ms returns 0
T20B8 000:519.381 JLINK_WriteReg(R14, 0x1FFF8001)
T20B8 000:519.411 - 0.030ms returns 0
T20B8 000:519.443 JLINK_WriteReg(R15 (PC), 0x1FFF84B4)
T20B8 000:519.473 - 0.030ms returns 0
T20B8 000:519.505 JLINK_WriteReg(XPSR, 0x01000000)
T20B8 000:519.535 - 0.030ms returns 0
T20B8 000:519.567 JLINK_WriteReg(MSP, 0x1FFF9000)
T20B8 000:519.597 - 0.030ms returns 0
T20B8 000:519.629 JLINK_WriteReg(PSP, 0x1FFF9000)
T20B8 000:519.659 - 0.030ms returns 0
T20B8 000:519.690 JLINK_WriteReg(CFBP, 0x00000000)
T20B8 000:519.721 - 0.030ms returns 0
T20B8 000:519.753 JLINK_SetBPEx(Addr = 0x1FFF8000, Type = 0xFFFFFFF2)
T20B8 000:519.786 - 0.033ms returns 0x0000000A
T20B8 000:519.818 JLINK_Go()
T20B8 000:519.858   CPU_WriteMem(4 bytes @ 0xE0002000)
T20B8 000:520.737   CPU_ReadMem(4 bytes @ 0xE0001000)
T20B8 000:524.541 - 4.722ms 
T20B8 000:524.597 JLINK_IsHalted()
T20B8 000:527.408 - 2.811ms returns TRUE
T20B8 000:527.469 JLINK_ReadReg(R15 (PC))
T20B8 000:527.503 - 0.034ms returns 0x1FFF8000
T20B8 000:527.538 JLINK_ClrBPEx(BPHandle = 0x0000000A)
T20B8 000:527.571 - 0.032ms returns 0x00
T20B8 000:527.607 JLINK_ReadReg(R0)
T20B8 000:527.638 - 0.031ms returns 0x00000000
T20B8 000:587.863 JLINK_WriteMem(0x1FFF8000, 0x670 Bytes, ...)
T20B8 000:587.919   Data:  00 BE 0A E0 0D 78 2D 06 68 40 08 24 40 00 00 D3 ...
T20B8 000:587.979   CPU_WriteMem(1648 bytes @ 0x1FFF8000)
T20B8 000:593.947 - 6.082ms returns 0x670
T20B8 000:594.146 JLINK_HasError()
T20B8 000:594.193 JLINK_WriteReg(R0, 0x00000000)
T20B8 000:594.236 - 0.043ms returns 0
T20B8 000:594.272 JLINK_WriteReg(R1, 0x00B71B00)
T20B8 000:594.307 - 0.034ms returns 0
T20B8 000:594.342 JLINK_WriteReg(R2, 0x00000002)
T20B8 000:594.382 - 0.040ms returns 0
T20B8 000:594.419 JLINK_WriteReg(R3, 0x00000000)
T20B8 000:594.468 - 0.048ms returns 0
T20B8 000:594.514 JLINK_WriteReg(R4, 0x00000000)
T20B8 000:594.553 - 0.039ms returns 0
T20B8 000:594.596 JLINK_WriteReg(R5, 0x00000000)
T20B8 000:594.618 - 0.023ms returns 0
T20B8 000:594.642 JLINK_WriteReg(R6, 0x00000000)
T20B8 000:594.666 - 0.024ms returns 0
T20B8 000:594.690 JLINK_WriteReg(R7, 0x00000000)
T20B8 000:594.713 - 0.023ms returns 0
T20B8 000:594.738 JLINK_WriteReg(R8, 0x00000000)
T20B8 000:594.762 - 0.023ms returns 0
T20B8 000:594.786 JLINK_WriteReg(R9, 0x1FFF866C)
T20B8 000:594.810 - 0.023ms returns 0
T20B8 000:594.833 JLINK_WriteReg(R10, 0x00000000)
T20B8 000:594.854 - 0.021ms returns 0
T20B8 000:594.876 JLINK_WriteReg(R11, 0x00000000)
T20B8 000:594.898 - 0.021ms returns 0
T20B8 000:594.920 JLINK_WriteReg(R12, 0x00000000)
T20B8 000:594.941 - 0.021ms returns 0
T20B8 000:594.963 JLINK_WriteReg(R13 (SP), 0x1FFF9000)
T20B8 000:594.985 - 0.022ms returns 0
T20B8 000:595.007 JLINK_WriteReg(R14, 0x1FFF8001)
T20B8 000:595.030 - 0.023ms returns 0
T20B8 000:595.056 JLINK_WriteReg(R15 (PC), 0x1FFF8478)
T20B8 000:595.079 - 0.024ms returns 0
T20B8 000:595.104 JLINK_WriteReg(XPSR, 0x01000000)
T20B8 000:595.124 - 0.019ms returns 0
T20B8 000:595.144 JLINK_WriteReg(MSP, 0x1FFF9000)
T20B8 000:595.164 - 0.019ms returns 0
T20B8 000:595.185 JLINK_WriteReg(PSP, 0x1FFF9000)
T20B8 000:595.204 - 0.019ms returns 0
T20B8 000:595.225 JLINK_WriteReg(CFBP, 0x00000000)
T20B8 000:595.246 - 0.020ms returns 0
T20B8 000:595.268 JLINK_SetBPEx(Addr = 0x1FFF8000, Type = 0xFFFFFFF2)
T20B8 000:595.292 - 0.024ms returns 0x0000000B
T20B8 000:595.313 JLINK_Go()
T20B8 000:595.345   CPU_WriteMem(4 bytes @ 0xE0002000)
T20B8 000:596.186   CPU_ReadMem(4 bytes @ 0xE0001000)
T20B8 000:599.650 - 4.335ms 
T20B8 000:599.703 JLINK_IsHalted()
T20B8 000:602.556 - 2.853ms returns TRUE
T20B8 000:602.593 JLINK_ReadReg(R15 (PC))
T20B8 000:602.623 - 0.030ms returns 0x1FFF8000
T20B8 000:602.649 JLINK_ClrBPEx(BPHandle = 0x0000000B)
T20B8 000:602.677 - 0.028ms returns 0x00
T20B8 000:602.711 JLINK_ReadReg(R0)
T20B8 000:602.750 - 0.039ms returns 0x00000000
T20B8 000:603.729 JLINK_WriteMem(0x1FFF8670, 0x190 Bytes, ...)
T20B8 000:603.763   Data:  C8 B7 FF 1F 21 04 00 00 59 04 00 00 5B 04 00 00 ...
T20B8 000:603.810   CPU_WriteMem(400 bytes @ 0x1FFF8670)
T20B8 000:605.955 - 2.225ms returns 0x190
T20B8 000:606.014 JLINK_WriteMem(0x1FFF8800, 0x70 Bytes, ...)
T20B8 000:606.047   Data:  75 37 00 00 8D 37 00 00 A5 37 00 00 BD 37 00 00 ...
T20B8 000:606.100   CPU_WriteMem(112 bytes @ 0x1FFF8800)
T20B8 000:607.271 - 1.257ms returns 0x70
T20B8 000:607.313 JLINK_HasError()
T20B8 000:607.351 JLINK_WriteReg(R0, 0x00000000)
T20B8 000:607.385 - 0.033ms returns 0
T20B8 000:607.420 JLINK_WriteReg(R1, 0x00000200)
T20B8 000:607.452 - 0.031ms returns 0
T20B8 000:607.486 JLINK_WriteReg(R2, 0x1FFF8670)
T20B8 000:607.518 - 0.031ms returns 0
T20B8 000:607.553 JLINK_WriteReg(R3, 0x00000000)
T20B8 000:607.584 - 0.030ms returns 0
T20B8 000:607.619 JLINK_WriteReg(R4, 0x00000000)
T20B8 000:607.650 - 0.031ms returns 0
T20B8 000:607.685 JLINK_WriteReg(R5, 0x00000000)
T20B8 000:607.716 - 0.031ms returns 0
T20B8 000:607.751 JLINK_WriteReg(R6, 0x00000000)
T20B8 000:607.782 - 0.031ms returns 0
T20B8 000:607.818 JLINK_WriteReg(R7, 0x00000000)
T20B8 000:607.849 - 0.031ms returns 0
T20B8 000:607.884 JLINK_WriteReg(R8, 0x00000000)
T20B8 000:607.916 - 0.031ms returns 0
T20B8 000:607.951 JLINK_WriteReg(R9, 0x1FFF866C)
T20B8 000:607.982 - 0.031ms returns 0
T20B8 000:608.017 JLINK_WriteReg(R10, 0x00000000)
T20B8 000:608.056 - 0.037ms returns 0
T20B8 000:608.132 JLINK_WriteReg(R11, 0x00000000)
T20B8 000:608.156 - 0.024ms returns 0
T20B8 000:608.487 JLINK_WriteReg(R12, 0x00000000)
T20B8 000:608.553 - 0.066ms returns 0
T20B8 000:608.591 JLINK_WriteReg(R13 (SP), 0x1FFF9000)
T20B8 000:608.626 - 0.035ms returns 0
T20B8 000:608.662 JLINK_WriteReg(R14, 0x1FFF8001)
T20B8 000:608.696 - 0.034ms returns 0
T20B8 000:608.731 JLINK_WriteReg(R15 (PC), 0x1FFF8488)
T20B8 000:608.765 - 0.033ms returns 0
T20B8 000:608.851 JLINK_WriteReg(XPSR, 0x01000000)
T20B8 000:608.958 - 0.107ms returns 0
T20B8 000:609.065 JLINK_WriteReg(MSP, 0x1FFF9000)
T20B8 000:609.175 - 0.110ms returns 0
T20B8 000:609.199 JLINK_WriteReg(PSP, 0x1FFF9000)
T20B8 000:609.225 - 0.025ms returns 0
T20B8 000:609.254 JLINK_WriteReg(CFBP, 0x00000000)
T20B8 000:609.277 - 0.023ms returns 0
T20B8 000:609.305 JLINK_SetBPEx(Addr = 0x1FFF8000, Type = 0xFFFFFFF2)
T20B8 000:609.327 - 0.021ms returns 0x0000000C
T20B8 000:609.348 JLINK_Go()
T20B8 000:609.370   CPU_WriteMem(4 bytes @ 0xE0002000)
T20B8 000:610.461   CPU_ReadMem(4 bytes @ 0xE0001000)
T20B8 000:614.034 - 4.685ms 
T20B8 000:614.107 JLINK_IsHalted()
T20B8 000:614.817 - 0.711ms returns FALSE
T20B8 000:614.850 JLINK_HasError()
T20B8 000:618.799 JLINK_HasError()
T20B8 000:618.837 JLINK_ReadReg(R0)
T20B8 000:621.694 - 2.856ms returns 0x00000000
T20B8 000:621.752 JLINK_ReadReg(R1)
T20B8 000:621.788 - 0.036ms returns 0x4001040C
T20B8 000:621.823 JLINK_ReadReg(R2)
T20B8 000:621.857 - 0.034ms returns 0x1FFF8670
T20B8 000:621.893 JLINK_ReadReg(R3)
T20B8 000:621.927 - 0.033ms returns 0xFFFFFFFF
T20B8 000:621.962 JLINK_ReadReg(R4)
T20B8 000:621.996 - 0.034ms returns 0x00000000
T20B8 000:622.032 JLINK_ReadReg(R5)
T20B8 000:622.066 - 0.033ms returns 0x00000000
T20B8 000:622.101 JLINK_ReadReg(R6)
T20B8 000:622.135 - 0.034ms returns 0x00000000
T20B8 000:622.171 JLINK_ReadReg(R7)
T20B8 000:622.205 - 0.034ms returns 0x00000000
T20B8 000:622.230 JLINK_ReadReg(R8)
T20B8 000:622.250 - 0.020ms returns 0x00000000
T20B8 000:622.270 JLINK_ReadReg(R9)
T20B8 000:622.290 - 0.020ms returns 0x1FFF866C
T20B8 000:622.311 JLINK_ReadReg(R10)
T20B8 000:622.331 - 0.020ms returns 0x00000000
T20B8 000:622.351 JLINK_ReadReg(R11)
T20B8 000:622.371 - 0.019ms returns 0x00000000
T20B8 000:622.392 JLINK_ReadReg(R12)
T20B8 000:622.412 - 0.020ms returns 0x00000000
T20B8 000:622.434 JLINK_ReadReg(R13 (SP))
T20B8 000:622.455 - 0.021ms returns 0x1FFF9000
T20B8 000:622.475 JLINK_ReadReg(R14)
T20B8 000:622.495 - 0.020ms returns 0x1FFF846B
T20B8 000:622.526 JLINK_ReadReg(R15 (PC))
T20B8 000:622.551 - 0.025ms returns 0x1FFF8000
T20B8 000:622.572 JLINK_ReadReg(XPSR)
T20B8 000:622.591 - 0.019ms returns 0x61000000
T20B8 000:622.612 JLINK_ReadReg(MSP)
T20B8 000:622.632 - 0.019ms returns 0x1FFF9000
T20B8 000:622.652 JLINK_ReadReg(PSP)
T20B8 000:622.672 - 0.019ms returns 0x1FFF9000
T20B8 000:622.692 JLINK_ReadReg(CFBP)
T20B8 000:622.712 - 0.020ms returns 0x00000000
T20B8 000:622.733 JLINK_ReadReg(FPSCR)
T20B8 000:626.534 - 3.800ms returns 0x00000000
T20B8 000:626.591 JLINK_ReadReg(FPS0)
T20B8 000:626.629 - 0.038ms returns 0xC8B43958
T20B8 000:626.665 JLINK_ReadReg(FPS1)
T20B8 000:626.700 - 0.034ms returns 0x3FF3BE76
T20B8 000:626.736 JLINK_ReadReg(FPS2)
T20B8 000:626.770 - 0.034ms returns 0xBF800000
T20B8 000:626.805 JLINK_ReadReg(FPS3)
T20B8 000:626.849 - 0.043ms returns 0xDDF51290
T20B8 000:626.885 JLINK_ReadReg(FPS4)
T20B8 000:626.919 - 0.034ms returns 0xCBEBA78D
T20B8 000:626.954 JLINK_ReadReg(FPS5)
T20B8 000:626.990 - 0.035ms returns 0xAABB4D7C
T20B8 000:627.026 JLINK_ReadReg(FPS6)
T20B8 000:627.066 - 0.040ms returns 0x9B41D88C
T20B8 000:627.099 JLINK_ReadReg(FPS7)
T20B8 000:627.131 - 0.031ms returns 0x40130F5B
T20B8 000:627.164 JLINK_ReadReg(FPS8)
T20B8 000:627.195 - 0.031ms returns 0xFF9D0EB1
T20B8 000:627.231 JLINK_ReadReg(FPS9)
T20B8 000:627.267 - 0.036ms returns 0xB9DECA1E
T20B8 000:627.303 JLINK_ReadReg(FPS10)
T20B8 000:627.348 - 0.044ms returns 0x7B3DD291
T20B8 000:627.394 JLINK_ReadReg(FPS11)
T20B8 000:627.431 - 0.036ms returns 0xDD1550E8
T20B8 000:627.474 JLINK_ReadReg(FPS12)
T20B8 000:627.511 - 0.037ms returns 0xC618DFCD
T20B8 000:627.543 JLINK_ReadReg(FPS13)
T20B8 000:627.575 - 0.031ms returns 0xDD24CF67
T20B8 000:627.608 JLINK_ReadReg(FPS14)
T20B8 000:627.639 - 0.031ms returns 0xFBF65593
T20B8 000:627.671 JLINK_ReadReg(FPS15)
T20B8 000:627.703 - 0.031ms returns 0x1FFA736C
T20B8 000:627.735 JLINK_ReadReg(FPS16)
T20B8 000:627.767 - 0.031ms returns 0xC8B43958
T20B8 000:627.800 JLINK_ReadReg(FPS17)
T20B8 000:627.831 - 0.031ms returns 0x3FF3BE76
T20B8 000:627.864 JLINK_ReadReg(FPS18)
T20B8 000:627.896 - 0.031ms returns 0xFDFA1313
T20B8 000:627.927 JLINK_ReadReg(FPS19)
T20B8 000:627.959 - 0.031ms returns 0x1B3BEF6F
T20B8 000:627.991 JLINK_ReadReg(FPS20)
T20B8 000:628.022 - 0.031ms returns 0x793CC77C
T20B8 000:628.055 JLINK_ReadReg(FPS21)
T20B8 000:628.086 - 0.031ms returns 0xF113AF9C
T20B8 000:628.119 JLINK_ReadReg(FPS22)
T20B8 000:628.151 - 0.032ms returns 0x619F6E52
T20B8 000:628.184 JLINK_ReadReg(FPS23)
T20B8 000:628.215 - 0.031ms returns 0xDFAA5F55
T20B8 000:628.248 JLINK_ReadReg(FPS24)
T20B8 000:628.280 - 0.031ms returns 0x24D6670E
T20B8 000:628.312 JLINK_ReadReg(FPS25)
T20B8 000:628.343 - 0.031ms returns 0x65E6B292
T20B8 000:628.376 JLINK_ReadReg(FPS26)
T20B8 000:628.407 - 0.031ms returns 0xCCA6DDFD
T20B8 000:628.439 JLINK_ReadReg(FPS27)
T20B8 000:628.472 - 0.032ms returns 0xEFE669EC
T20B8 000:628.495 JLINK_ReadReg(FPS28)
T20B8 000:628.515 - 0.019ms returns 0xF3E16F7F
T20B8 000:628.540 JLINK_ReadReg(FPS29)
T20B8 000:628.560 - 0.019ms returns 0x72B56FEF
T20B8 000:628.580 JLINK_ReadReg(FPS30)
T20B8 000:628.600 - 0.019ms returns 0x7DD6DFEE
T20B8 000:628.620 JLINK_ReadReg(FPS31)
T20B8 000:628.640 - 0.019ms returns 0xBFFA6DEF
T20B8 000:650.041 JLINK_IsHalted()
T20B8 000:650.244 - 0.203ms returns TRUE
T20B8 000:650.281 JLINK_ReadReg(R15 (PC))
T20B8 000:650.320 - 0.038ms returns 0x1FFF8000
T20B8 000:650.353 JLINK_ClrBPEx(BPHandle = 0x0000000C)
T20B8 000:650.387 - 0.034ms returns 0x00
T20B8 000:650.426 JLINK_ReadReg(R0)
T20B8 000:650.463 - 0.037ms returns 0x00000000
T20B8 000:651.402 JLINK_WriteMem(0x1FFF8670, 0x190 Bytes, ...)
T20B8 000:651.468   Data:  15 3A 00 00 2D 3A 00 00 45 3A 00 00 5D 3A 00 00 ...
T20B8 000:651.523   CPU_WriteMem(400 bytes @ 0x1FFF8670)
T20B8 000:653.831 - 2.428ms returns 0x190
T20B8 000:653.901 JLINK_WriteMem(0x1FFF8800, 0x70 Bytes, ...)
T20B8 000:653.922   Data:  83 FB 00 F0 61 FB 04 00 00 20 00 21 05 F0 B8 FE ...
T20B8 000:653.964   CPU_WriteMem(112 bytes @ 0x1FFF8800)
T20B8 000:655.052 - 1.150ms returns 0x70
T20B8 000:655.112 JLINK_HasError()
T20B8 000:655.152 JLINK_WriteReg(R0, 0x00000200)
T20B8 000:655.192 - 0.040ms returns 0
T20B8 000:655.227 JLINK_WriteReg(R1, 0x00000200)
T20B8 000:655.262 - 0.035ms returns 0
T20B8 000:655.297 JLINK_WriteReg(R2, 0x1FFF8670)
T20B8 000:655.332 - 0.034ms returns 0
T20B8 000:655.367 JLINK_WriteReg(R3, 0xFFFFFFFF)
T20B8 000:655.401 - 0.033ms returns 0
T20B8 000:655.437 JLINK_WriteReg(R4, 0x00000000)
T20B8 000:655.471 - 0.034ms returns 0
T20B8 000:655.506 JLINK_WriteReg(R5, 0x00000000)
T20B8 000:655.540 - 0.033ms returns 0
T20B8 000:655.575 JLINK_WriteReg(R6, 0x00000000)
T20B8 000:655.612 - 0.036ms returns 0
T20B8 000:655.654 JLINK_WriteReg(R7, 0x00000000)
T20B8 000:655.689 - 0.035ms returns 0
T20B8 000:655.725 JLINK_WriteReg(R8, 0x00000000)
T20B8 000:655.759 - 0.034ms returns 0
T20B8 000:655.794 JLINK_WriteReg(R9, 0x1FFF866C)
T20B8 000:655.826 - 0.031ms returns 0
T20B8 000:655.846 JLINK_WriteReg(R10, 0x00000000)
T20B8 000:655.866 - 0.020ms returns 0
T20B8 000:655.887 JLINK_WriteReg(R11, 0x00000000)
T20B8 000:655.906 - 0.019ms returns 0
T20B8 000:655.927 JLINK_WriteReg(R12, 0x00000000)
T20B8 000:655.947 - 0.019ms returns 0
T20B8 000:655.968 JLINK_WriteReg(R13 (SP), 0x1FFF9000)
T20B8 000:655.988 - 0.021ms returns 0
T20B8 000:656.009 JLINK_WriteReg(R14, 0x1FFF8001)
T20B8 000:656.030 - 0.021ms returns 0
T20B8 000:656.051 JLINK_WriteReg(R15 (PC), 0x1FFF8488)
T20B8 000:656.071 - 0.020ms returns 0
T20B8 000:656.091 JLINK_WriteReg(XPSR, 0x01000000)
T20B8 000:656.111 - 0.020ms returns 0
T20B8 000:656.132 JLINK_WriteReg(MSP, 0x1FFF9000)
T20B8 000:656.152 - 0.020ms returns 0
T20B8 000:656.172 JLINK_WriteReg(PSP, 0x1FFF9000)
T20B8 000:656.193 - 0.020ms returns 0
T20B8 000:656.213 JLINK_WriteReg(CFBP, 0x00000000)
T20B8 000:656.233 - 0.019ms returns 0
